T6B4C 000:009.343   SEGGER J-Link V6.86 Log File
T6B4C 000:009.452   DLL Compiled: Sep 24 2020 17:31:31
T6B4C 000:009.457   Logging started @ 2026-02-05 09:03
T6B4C 000:009.461 - 9.463ms
T6B4C 000:009.471 JLINK_SetWarnOutHandler(...)
T6B4C 000:009.476 - 0.007ms
T6B4C 000:009.481 JLINK_OpenEx(...)
T6B4C 000:011.473   Firmware: J-Link ARM-OB STM32 compiled Aug 22 2012 19:52:04
T6B4C 000:014.447   Hardware: V7.00
T6B4C 000:014.466   S/N: 20090928
T6B4C 000:014.473   OEM: SEGGER
T6B4C 000:014.479   Feature(s): JFlash, RDI, GDB, FlashDL, FlashBP
T6B4C 000:015.995   TELNET listener socket opened on port 19021
T6B4C 000:016.064   WEBSRV Starting webserver
T6B4C 000:016.162   WEBSRV Webserver running on local port 19080
T6B4C 000:016.170 - 6.691ms returns "O.K."
T6B4C 000:016.180 JLINK_GetEmuCaps()
T6B4C 000:016.184 - 0.006ms returns 0x88EA5833
T6B4C 000:016.191 JLINK_TIF_GetAvailable(...)
T6B4C 000:016.575 - 0.390ms
T6B4C 000:016.590 JLINK_SetErrorOutHandler(...)
T6B4C 000:016.595 - 0.007ms
T6B4C 000:016.619 JLINK_ExecCommand("ProjectFile = "E:\Workingspace\a_RuanChiBai_Prj\SoftscalePendulumDriveBoard\MDK-ARM\JLinkSettings.ini"", ...). 
T6B4C 000:021.712   Device "STM32G474RE" selected.
T6B4C 000:021.955 - 5.341ms returns 0x00
T6B4C 000:021.974 JLINK_ExecCommand("Device = STM32G474RETx", ...). 
T6B4C 000:022.250   Device "STM32G474RE" selected.
T6B4C 000:022.468 - 0.492ms returns 0x00
T6B4C 000:022.482 JLINK_GetHardwareVersion()
T6B4C 000:022.487 - 0.006ms returns 70000
T6B4C 000:022.499 JLINK_GetDLLVersion()
T6B4C 000:022.503 - 0.006ms returns 68600
T6B4C 000:022.509 JLINK_GetOEMString(...)
T6B4C 000:022.515 JLINK_GetFirmwareString(...)
T6B4C 000:022.519 - 0.006ms
T6B4C 000:022.535 JLINK_GetDLLVersion()
T6B4C 000:022.539 - 0.006ms returns 68600
T6B4C 000:022.544 JLINK_GetCompileDateTime()
T6B4C 000:022.548 - 0.006ms
T6B4C 000:022.556 JLINK_GetFirmwareString(...)
T6B4C 000:022.561 - 0.006ms
T6B4C 000:022.568 JLINK_GetHardwareVersion()
T6B4C 000:022.572 - 0.006ms returns 70000
T6B4C 000:022.580 JLINK_GetSN()
T6B4C 000:022.585 - 0.006ms returns 20090928
T6B4C 000:022.592 JLINK_GetOEMString(...)
T6B4C 000:022.602 JLINK_TIF_Select(JLINKARM_TIF_SWD)
T6B4C 000:023.646 - 1.053ms returns 0x00
T6B4C 000:023.661 JLINK_HasError()
T6B4C 000:023.679 JLINK_SetSpeed(5000)
T6B4C 000:024.019 - 0.343ms
T6B4C 000:024.027 JLINK_GetId()
T6B4C 000:025.549   Found SW-DP with ID 0x2BA01477
T6B4C 000:030.876   Old FW that does not support reading DPIDR via DAP jobs
T6B4C 000:037.886   Unknown DP version. Assuming DPv0
T6B4C 000:037.914   Scanning AP map to find all available APs
T6B4C 000:042.505   AP[1]: Stopped AP scan as end of AP map has been reached
T6B4C 000:042.522   AP[0]: AHB-AP (IDR: 0x24770011)
T6B4C 000:042.530   Iterating through AP map to find AHB-AP to use
T6B4C 000:050.139   AP[0]: Core found
T6B4C 000:050.155   AP[0]: AHB-AP ROM base: 0xE00FF000
T6B4C 000:054.007   CPUID register: 0x410FC241. Implementer code: 0x41 (ARM)
T6B4C 000:054.023   Found Cortex-M4 r0p1, Little endian.
T6B4C 000:155.194   -- Max. mem block: 0x00002C18
T6B4C 000:155.236   CPU_ReadMem(4 bytes @ 0xE000EDF0)
T6B4C 000:156.222   CPU_WriteMem(4 bytes @ 0xE000EDF0)
T6B4C 000:156.872   CPU_ReadMem(4 bytes @ 0xE0002000)
T6B4C 000:157.496   FPUnit: 6 code (BP) slots and 2 literal slots
T6B4C 000:157.504   CPU_ReadMem(4 bytes @ 0xE000EDFC)
T6B4C 000:158.090   CPU_WriteMem(4 bytes @ 0xE000EDFC)
T6B4C 000:158.742   CPU_ReadMem(4 bytes @ 0xE0001000)
T6B4C 000:159.338   CPU_WriteMem(4 bytes @ 0xE0001000)
T6B4C 000:159.993   CPU_ReadMem(4 bytes @ 0xE000ED88)
T6B4C 000:160.589   CPU_WriteMem(4 bytes @ 0xE000ED88)
T6B4C 000:161.242   CPU_ReadMem(4 bytes @ 0xE000ED88)
T6B4C 000:161.870   CPU_WriteMem(4 bytes @ 0xE000ED88)
T6B4C 000:162.502   CoreSight components:
T6B4C 000:162.516   ROMTbl[0] @ E00FF000
T6B4C 000:162.523   CPU_ReadMem(64 bytes @ 0xE00FF000)
T6B4C 000:163.691   CPU_ReadMem(32 bytes @ 0xE000EFE0)
T6B4C 000:164.618   ROMTbl[0][0]: E000E000, CID: B105E00D, PID: 000BB00C SCS-M7
T6B4C 000:164.626   CPU_ReadMem(32 bytes @ 0xE0001FE0)
T6B4C 000:165.629   ROMTbl[0][1]: E0001000, CID: B105E00D, PID: 003BB002 DWT
T6B4C 000:165.644   CPU_ReadMem(32 bytes @ 0xE0002FE0)
T6B4C 000:166.502   ROMTbl[0][2]: E0002000, CID: B105E00D, PID: 002BB003 FPB
T6B4C 000:166.516   CPU_ReadMem(32 bytes @ 0xE0000FE0)
T6B4C 000:167.373   ROMTbl[0][3]: E0000000, CID: B105E00D, PID: 003BB001 ITM
T6B4C 000:167.387   CPU_ReadMem(32 bytes @ 0xE0040FE0)
T6B4C 000:168.245   ROMTbl[0][4]: E0040000, CID: B105900D, PID: 000BB9A1 TPIU
T6B4C 000:168.257   CPU_ReadMem(32 bytes @ 0xE0041FE0)
T6B4C 000:169.116   ROMTbl[0][5]: E0041000, CID: B105900D, PID: 000BB925 ETM
T6B4C 000:169.867 - 145.846ms returns 0x2BA01477
T6B4C 000:169.885 JLINK_GetDLLVersion()
T6B4C 000:169.890 - 0.006ms returns 68600
T6B4C 000:169.897 JLINK_CORE_GetFound()
T6B4C 000:169.901 - 0.006ms returns 0xE0000FF
T6B4C 000:169.906 JLINK_GetDebugInfo(0x100 = JLINKARM_ROM_TABLE_ADDR_INDEX)
T6B4C 000:169.911   Value=0xE00FF000
T6B4C 000:169.918 - 0.013ms returns 0
T6B4C 000:169.955 JLINK_GetDebugInfo(0x100 = JLINKARM_ROM_TABLE_ADDR_INDEX)
T6B4C 000:169.960   Value=0xE00FF000
T6B4C 000:169.966 - 0.012ms returns 0
T6B4C 000:169.971 JLINK_GetDebugInfo(0x101 = JLINKARM_DEBUG_INFO_ETM_ADDR_INDEX)
T6B4C 000:169.975   Value=0xE0041000
T6B4C 000:169.981 - 0.012ms returns 0
T6B4C 000:169.995 JLINK_ReadMemEx(0xE0041FD0, 0x20 Bytes, Flags = 0x02000004)
T6B4C 000:170.029   CPU_ReadMem(32 bytes @ 0xE0041FD0)
T6B4C 000:170.896   Data:  04 00 00 00 00 00 00 00 00 00 00 00 00 00 00 00 ...
T6B4C 000:170.909 - 0.916ms returns 32 (0x20)
T6B4C 000:170.916 JLINK_GetDebugInfo(0x102 = JLINKARM_DEBUG_INFO_MTB_ADDR_INDEX)
T6B4C 000:170.921   Value=0x00000000
T6B4C 000:170.928 - 0.014ms returns 0
T6B4C 000:170.933 JLINK_GetDebugInfo(0x103 = JLINKARM_DEBUG_INFO_TPIU_ADDR_INDEX)
T6B4C 000:170.938   Value=0xE0040000
T6B4C 000:170.945 - 0.016ms returns 0
T6B4C 000:170.954 JLINK_GetDebugInfo(0x104 = JLINKARM_DEBUG_INFO_ITM_ADDR_INDEX)
T6B4C 000:170.960   Value=0xE0000000
T6B4C 000:170.967 - 0.014ms returns 0
T6B4C 000:170.972 JLINK_GetDebugInfo(0x105 = JLINKARM_DEBUG_INFO_DWT_ADDR_INDEX)
T6B4C 000:170.976   Value=0xE0001000
T6B4C 000:170.983 - 0.013ms returns 0
T6B4C 000:170.988 JLINK_GetDebugInfo(0x106 = JLINKARM_DEBUG_INFO_FPB_ADDR_INDEX)
T6B4C 000:170.994   Value=0xE0002000
T6B4C 000:171.001 - 0.014ms returns 0
T6B4C 000:171.006 JLINK_GetDebugInfo(0x107 = JLINKARM_DEBUG_INFO_NVIC_ADDR_INDEX)
T6B4C 000:171.010   Value=0xE000E000
T6B4C 000:171.017 - 0.013ms returns 0
T6B4C 000:171.022 JLINK_GetDebugInfo(0x10C = JLINKARM_DEBUG_INFO_DBG_ADDR_INDEX)
T6B4C 000:171.027   Value=0xE000EDF0
T6B4C 000:171.034 - 0.013ms returns 0
T6B4C 000:171.039 JLINK_GetDebugInfo(0x01 = Unknown)
T6B4C 000:171.044   Value=0x00000001
T6B4C 000:171.050 - 0.013ms returns 0
T6B4C 000:171.055 JLINK_ReadMemU32(0xE000ED00, 0x1 Items)
T6B4C 000:171.064   CPU_ReadMem(4 bytes @ 0xE000ED00)
T6B4C 000:171.712   Data:  41 C2 0F 41
T6B4C 000:171.724   Debug reg: CPUID
T6B4C 000:171.730 - 0.677ms returns 1 (0x1)
T6B4C 000:171.737 JLINK_GetDebugInfo(0x10F = JLINKARM_DEBUG_INFO_HAS_CORTEX_M_SECURITY_EXT_INDEX)
T6B4C 000:171.742   Value=0x00000000
T6B4C 000:171.748 - 0.013ms returns 0
T6B4C 000:171.754 JLINK_HasError()
T6B4C 000:171.759 JLINK_SetResetType(JLINKARM_CM3_RESET_TYPE_NORMAL)
T6B4C 000:171.764 - 0.006ms returns JLINKARM_CM3_RESET_TYPE_NORMAL
T6B4C 000:171.769 JLINK_Reset()
T6B4C 000:171.791   CPU is running
T6B4C 000:171.798   CPU_WriteMem(4 bytes @ 0xE000EDF0)
T6B4C 000:172.487   CPU is running
T6B4C 000:172.500   CPU_WriteMem(4 bytes @ 0xE000EDFC)
T6B4C 000:173.108   Reset: Halt core after reset via DEMCR.VC_CORERESET.
T6B4C 000:173.881   Reset: Reset device via AIRCR.SYSRESETREQ.
T6B4C 000:173.893   CPU is running
T6B4C 000:173.901   CPU_WriteMem(4 bytes @ 0xE000ED0C)
T6B4C 000:227.516   CPU_ReadMem(4 bytes @ 0xE000EDF0)
T6B4C 000:228.091   CPU_ReadMem(4 bytes @ 0xE000EDF0)
T6B4C 000:228.709   CPU is running
T6B4C 000:228.722   CPU_WriteMem(4 bytes @ 0xE000EDF0)
T6B4C 000:229.365   CPU is running
T6B4C 000:229.384   CPU_WriteMem(4 bytes @ 0xE000EDFC)
T6B4C 000:235.362   CPU_ReadMem(4 bytes @ 0xE000EDF0)
T6B4C 000:239.465   CPU_WriteMem(4 bytes @ 0xE0002000)
T6B4C 000:240.107   CPU_ReadMem(4 bytes @ 0xE000EDFC)
T6B4C 000:240.717   CPU_ReadMem(4 bytes @ 0xE0001000)
T6B4C 000:241.339 - 69.573ms
T6B4C 000:241.356 JLINK_HasError()
T6B4C 000:241.393 JLINK_ReadReg(R15 (PC))
T6B4C 000:241.405 - 0.014ms returns 0x080001F0
T6B4C 000:241.410 JLINK_ReadReg(XPSR)
T6B4C 000:241.415 - 0.007ms returns 0x01000000
T6B4C 000:241.421 JLINK_Halt()
T6B4C 000:241.426 - 0.006ms returns 0x00
T6B4C 000:241.431 JLINK_ReadMemU32(0xE000EDF0, 0x1 Items)
T6B4C 000:241.440   CPU_ReadMem(4 bytes @ 0xE000EDF0)
T6B4C 000:242.089   Data:  03 00 03 00
T6B4C 000:242.101   Debug reg: DHCSR
T6B4C 000:242.108 - 0.678ms returns 1 (0x1)
T6B4C 000:242.122 JLINK_WriteU32_64(0xE000EDF0, 0xA05F0003)
T6B4C 000:242.128   Debug reg: DHCSR
T6B4C 000:242.153   CPU_WriteMem(4 bytes @ 0xE000EDF0)
T6B4C 000:242.747 - 0.633ms returns 0 (0x00000000)
T6B4C 000:242.761 JLINK_WriteU32_64(0xE000EDFC, 0x01000000)
T6B4C 000:242.766   Debug reg: DEMCR
T6B4C 000:242.778   CPU_WriteMem(4 bytes @ 0xE000EDFC)
T6B4C 000:243.373 - 0.621ms returns 0 (0x00000000)
T6B4C 000:243.421 JLINK_GetHWStatus(...)
T6B4C 000:243.869 - 0.455ms returns 0
T6B4C 000:243.896 JLINK_GetNumBPUnits(Type = 0xFFFFFF00)
T6B4C 000:243.902 - 0.007ms returns 0x06
T6B4C 000:243.907 JLINK_GetNumBPUnits(Type = 0xF0)
T6B4C 000:243.911 - 0.006ms returns 0x2000
T6B4C 000:243.917 JLINK_GetNumWPUnits()
T6B4C 000:243.921 - 0.006ms returns 4
T6B4C 000:243.933 JLINK_GetSpeed()
T6B4C 000:243.937 - 0.006ms returns 4000
T6B4C 000:243.945 JLINK_ReadMemU32(0xE000E004, 0x1 Items)
T6B4C 000:243.954   CPU_ReadMem(4 bytes @ 0xE000E004)
T6B4C 000:244.593   Data:  03 00 00 00
T6B4C 000:244.606 - 0.662ms returns 1 (0x1)
T6B4C 000:244.613 JLINK_ReadMemU32(0xE000E004, 0x1 Items)
T6B4C 000:244.621   CPU_ReadMem(4 bytes @ 0xE000E004)
T6B4C 000:245.212   Data:  03 00 00 00
T6B4C 000:245.225 - 0.614ms returns 1 (0x1)
T6B4C 000:245.233 JLINK_WriteMemEx(0xE0001000, 0x0000001C Bytes, Flags = 0x02000004)
T6B4C 000:245.238   Data:  01 00 00 00 00 00 00 00 00 00 00 00 00 00 00 00 ...
T6B4C 000:245.407   CPU_WriteMem(28 bytes @ 0xE0001000)
T6B4C 000:246.273 - 1.048ms returns 0x1C
T6B4C 000:246.287 JLINK_HasError()
T6B4C 000:246.293 JLINK_ReadReg(R15 (PC))
T6B4C 000:246.300 - 0.009ms returns 0x080001F0
T6B4C 000:246.305 JLINK_ReadReg(XPSR)
T6B4C 000:246.310 - 0.007ms returns 0x01000000
T6B4C 000:248.542 JLINK_ReadMemEx(0xE0001004, 0x4 Bytes, Flags = 0x02000000)
T6B4C 000:248.556   Data:  00 00 00 00
T6B4C 000:248.563   Debug reg: DWT_CYCCNT
T6B4C 000:248.569 - 0.030ms returns 4 (0x4)
T6B4C 000:341.349 JLINK_HasError()
T6B4C 000:341.378 JLINK_SetResetType(JLINKARM_CM3_RESET_TYPE_NORMAL)
T6B4C 000:341.384 - 0.008ms returns JLINKARM_CM3_RESET_TYPE_NORMAL
T6B4C 000:341.391 JLINK_Reset()
T6B4C 000:341.407   CPU_WriteMem(4 bytes @ 0xE000EDF0)
T6B4C 000:342.123   CPU_WriteMem(4 bytes @ 0xE000EDFC)
T6B4C 000:342.758   Reset: Halt core after reset via DEMCR.VC_CORERESET.
T6B4C 000:343.516   Reset: Reset device via AIRCR.SYSRESETREQ.
T6B4C 000:343.531   CPU_WriteMem(4 bytes @ 0xE000ED0C)
T6B4C 000:396.378   CPU_ReadMem(4 bytes @ 0xE000EDF0)
T6B4C 000:396.957   CPU_ReadMem(4 bytes @ 0xE000EDF0)
T6B4C 000:397.596   CPU_WriteMem(4 bytes @ 0xE000EDF0)
T6B4C 000:398.229   CPU_WriteMem(4 bytes @ 0xE000EDFC)
T6B4C 000:405.245   CPU_ReadMem(4 bytes @ 0xE000EDF0)
T6B4C 000:409.456   CPU_WriteMem(4 bytes @ 0xE0002000)
T6B4C 000:410.115   CPU_ReadMem(4 bytes @ 0xE000EDFC)
T6B4C 000:410.778   CPU_ReadMem(4 bytes @ 0xE0001000)
T6B4C 000:411.334 - 69.946ms
T6B4C 000:411.397 JLINK_HasError()
T6B4C 000:411.404 JLINK_ReadReg(R15 (PC))
T6B4C 000:411.412 - 0.010ms returns 0x080001F0
T6B4C 000:411.418 JLINK_ReadReg(XPSR)
T6B4C 000:411.423 - 0.007ms returns 0x01000000
T6B4C 000:411.720 JLINK_ReadMemEx(0x080001D8, 0x3C Bytes, Flags = 0x02000000)
T6B4C 000:411.733   CPU_ReadMem(128 bytes @ 0x080001C0)
T6B4C 000:413.580    -- Updating C cache (128 bytes @ 0x080001C0)
T6B4C 000:413.593    -- Read from C cache (60 bytes @ 0x080001D8)
T6B4C 000:413.600   Data:  DF F8 10 D0 00 F0 DE FA 00 48 00 47 AD 7F 00 08 ...
T6B4C 000:413.607 - 1.889ms returns 60 (0x3C)
T6B4C 000:413.613 JLINK_ReadMemEx(0x080001D8, 0x2 Bytes, Flags = 0x02000000)
T6B4C 000:413.619    -- Read from C cache (2 bytes @ 0x080001D8)
T6B4C 000:413.625   Data:  DF F8
T6B4C 000:413.632 - 0.020ms returns 2 (0x2)
T6B4C 000:413.687 JLINK_ReadMemEx(0x080001DA, 0x2 Bytes, Flags = 0x02000000)
T6B4C 000:413.692    -- Read from C cache (2 bytes @ 0x080001DA)
T6B4C 000:413.698   Data:  10 D0
T6B4C 000:413.704 - 0.019ms returns 2 (0x2)
T6B4C 000:413.710 JLINK_ReadMemEx(0x080001DC, 0x3C Bytes, Flags = 0x02000000)
T6B4C 000:413.715    -- Read from C cache (60 bytes @ 0x080001DC)
T6B4C 000:413.721   Data:  00 F0 DE FA 00 48 00 47 AD 7F 00 08 AF F3 00 80 ...
T6B4C 000:413.727 - 0.019ms returns 60 (0x3C)
T6B4C 000:413.732 JLINK_ReadMemEx(0x080001DC, 0x2 Bytes, Flags = 0x02000000)
T6B4C 000:413.737    -- Read from C cache (2 bytes @ 0x080001DC)
T6B4C 000:413.744   Data:  00 F0
T6B4C 000:413.750 - 0.019ms returns 2 (0x2)
T6B4C 000:413.755 JLINK_ReadMemEx(0x080001DE, 0x2 Bytes, Flags = 0x02000000)
T6B4C 000:413.759    -- Read from C cache (2 bytes @ 0x080001DE)
T6B4C 000:413.766   Data:  DE FA
T6B4C 000:413.772 - 0.019ms returns 2 (0x2)
T6B4C 000:413.778 JLINK_ReadMemEx(0x080001E0, 0x3C Bytes, Flags = 0x02000000)
T6B4C 000:413.783    -- Read from C cache (60 bytes @ 0x080001E0)
T6B4C 000:413.791   Data:  00 48 00 47 AD 7F 00 08 AF F3 00 80 00 20 00 20 ...
T6B4C 000:413.798 - 0.022ms returns 60 (0x3C)
T6B4C 000:413.803 JLINK_ReadMemEx(0x080001E0, 0x2 Bytes, Flags = 0x02000000)
T6B4C 000:413.808    -- Read from C cache (2 bytes @ 0x080001E0)
T6B4C 000:413.814   Data:  00 48
T6B4C 000:413.821 - 0.019ms returns 2 (0x2)
T6B4C 000:413.826 JLINK_ReadMemEx(0x080001E2, 0x2 Bytes, Flags = 0x02000000)
T6B4C 000:413.830    -- Read from C cache (2 bytes @ 0x080001E2)
T6B4C 000:413.837   Data:  00 47
T6B4C 000:413.843 - 0.019ms returns 2 (0x2)
T6B4C 000:413.849 JLINK_ReadMemEx(0x080001E2, 0x2 Bytes, Flags = 0x02000000)
T6B4C 000:413.853    -- Read from C cache (2 bytes @ 0x080001E2)
T6B4C 000:413.859   Data:  00 47
T6B4C 000:413.865 - 0.018ms returns 2 (0x2)
T6B4C 000:413.870 JLINK_ReadMemEx(0x080001E4, 0x3C Bytes, Flags = 0x02000000)
T6B4C 000:413.875    -- Read from C cache (60 bytes @ 0x080001E4)
T6B4C 000:413.881   Data:  AD 7F 00 08 AF F3 00 80 00 20 00 20 06 48 80 47 ...
T6B4C 000:413.887 - 0.018ms returns 60 (0x3C)
T6B4C 000:413.892 JLINK_ReadMemEx(0x080001E4, 0x2 Bytes, Flags = 0x02000000)
T6B4C 000:413.896    -- Read from C cache (2 bytes @ 0x080001E4)
T6B4C 000:413.902   Data:  AD 7F
T6B4C 000:413.908 - 0.018ms returns 2 (0x2)
T6B4C 000:413.914 JLINK_ReadMemEx(0x080001E8, 0x3C Bytes, Flags = 0x02000000)
T6B4C 000:413.918    -- Read from C cache (60 bytes @ 0x080001E8)
T6B4C 000:413.925   Data:  AF F3 00 80 00 20 00 20 06 48 80 47 06 48 00 47 ...
T6B4C 000:413.930 - 0.018ms returns 60 (0x3C)
T6B4C 000:413.935 JLINK_ReadMemEx(0x080001E8, 0x2 Bytes, Flags = 0x02000000)
T6B4C 000:413.940    -- Read from C cache (2 bytes @ 0x080001E8)
T6B4C 000:413.946   Data:  AF F3
T6B4C 000:413.952 - 0.018ms returns 2 (0x2)
T6B4C 000:413.957 JLINK_ReadMemEx(0x080001EA, 0x2 Bytes, Flags = 0x02000000)
T6B4C 000:413.961    -- Read from C cache (2 bytes @ 0x080001EA)
T6B4C 000:413.967   Data:  00 80
T6B4C 000:413.973 - 0.018ms returns 2 (0x2)
T6B4C 000:413.991 JLINK_ReadMemEx(0x080001EC, 0x3C Bytes, Flags = 0x02000000)
T6B4C 000:413.995    -- Read from C cache (60 bytes @ 0x080001EC)
T6B4C 000:414.002   Data:  00 20 00 20 06 48 80 47 06 48 00 47 FE E7 FE E7 ...
T6B4C 000:414.007 - 0.019ms returns 60 (0x3C)
T6B4C 000:414.012 JLINK_ReadMemEx(0x080001EC, 0x2 Bytes, Flags = 0x02000000)
T6B4C 000:414.017    -- Read from C cache (2 bytes @ 0x080001EC)
T6B4C 000:414.023   Data:  00 20
T6B4C 000:414.029 - 0.018ms returns 2 (0x2)
T6B4C 000:414.075 JLINK_ReadMemEx(0x080001EE, 0x2 Bytes, Flags = 0x02000000)
T6B4C 000:414.081    -- Read from C cache (2 bytes @ 0x080001EE)
T6B4C 000:414.087   Data:  00 20
T6B4C 000:414.093 - 0.020ms returns 2 (0x2)
T6B4C 000:414.102 JLINK_ReadMemEx(0x080001EE, 0x2 Bytes, Flags = 0x02000000)
T6B4C 000:414.107    -- Read from C cache (2 bytes @ 0x080001EE)
T6B4C 000:414.113   Data:  00 20
T6B4C 000:414.119 - 0.018ms returns 2 (0x2)
T6B4C 000:414.124 JLINK_ReadMemEx(0x080001F0, 0x3C Bytes, Flags = 0x02000000)
T6B4C 000:414.129    -- Read from C cache (60 bytes @ 0x080001F0)
T6B4C 000:414.135   Data:  06 48 80 47 06 48 00 47 FE E7 FE E7 FE E7 FE E7 ...
T6B4C 000:414.141 - 0.018ms returns 60 (0x3C)
T6B4C 000:414.146 JLINK_ReadMemEx(0x080001F0, 0x2 Bytes, Flags = 0x02000000)
T6B4C 000:414.150    -- Read from C cache (2 bytes @ 0x080001F0)
T6B4C 000:414.156   Data:  06 48
T6B4C 000:414.162 - 0.018ms returns 2 (0x2)
T6B4C 000:414.170 JLINK_ReadMemEx(0x080001F0, 0x3C Bytes, Flags = 0x02000000)
T6B4C 000:414.174    -- Read from C cache (60 bytes @ 0x080001F0)
T6B4C 000:414.180   Data:  06 48 80 47 06 48 00 47 FE E7 FE E7 FE E7 FE E7 ...
T6B4C 000:414.186 - 0.019ms returns 60 (0x3C)
T6B4C 000:414.191 JLINK_ReadMemEx(0x080001F0, 0x2 Bytes, Flags = 0x02000000)
T6B4C 000:414.196    -- Read from C cache (2 bytes @ 0x080001F0)
T6B4C 000:414.202   Data:  06 48
T6B4C 000:414.208 - 0.018ms returns 2 (0x2)
T6B4C 000:414.213 JLINK_ReadMemEx(0x080001F2, 0x2 Bytes, Flags = 0x02000000)
T6B4C 000:414.217    -- Read from C cache (2 bytes @ 0x080001F2)
T6B4C 000:414.224   Data:  80 47
T6B4C 000:414.230 - 0.018ms returns 2 (0x2)
T6B4C 000:414.237 JLINK_ReadMemEx(0x080001F2, 0x2 Bytes, Flags = 0x02000000)
T6B4C 000:414.242    -- Read from C cache (2 bytes @ 0x080001F2)
T6B4C 000:414.248   Data:  80 47
T6B4C 000:414.254 - 0.019ms returns 2 (0x2)
T6B4C 000:414.259 JLINK_ReadMemEx(0x080001F4, 0x3C Bytes, Flags = 0x02000000)
T6B4C 000:414.263    -- Read from C cache (60 bytes @ 0x080001F4)
T6B4C 000:414.270   Data:  06 48 00 47 FE E7 FE E7 FE E7 FE E7 FE E7 FE E7 ...
T6B4C 000:414.276 - 0.018ms returns 60 (0x3C)
T6B4C 000:414.281 JLINK_ReadMemEx(0x080001F4, 0x2 Bytes, Flags = 0x02000000)
T6B4C 000:414.285    -- Read from C cache (2 bytes @ 0x080001F4)
T6B4C 000:414.291   Data:  06 48
T6B4C 000:414.297 - 0.018ms returns 2 (0x2)
T6B4C 000:414.304 JLINK_ReadMemEx(0x080001F4, 0x3C Bytes, Flags = 0x02000000)
T6B4C 000:414.308    -- Read from C cache (60 bytes @ 0x080001F4)
T6B4C 000:414.314   Data:  06 48 00 47 FE E7 FE E7 FE E7 FE E7 FE E7 FE E7 ...
T6B4C 000:414.320 - 0.018ms returns 60 (0x3C)
T6B4C 000:414.325 JLINK_ReadMemEx(0x080001F4, 0x2 Bytes, Flags = 0x02000000)
T6B4C 000:414.330    -- Read from C cache (2 bytes @ 0x080001F4)
T6B4C 000:414.336   Data:  06 48
T6B4C 000:414.342 - 0.018ms returns 2 (0x2)
T6B4C 000:414.347 JLINK_ReadMemEx(0x080001F6, 0x2 Bytes, Flags = 0x02000000)
T6B4C 000:414.351    -- Read from C cache (2 bytes @ 0x080001F6)
T6B4C 000:414.357   Data:  00 47
T6B4C 000:414.363 - 0.018ms returns 2 (0x2)
T6B4C 000:577.894 JLINK_ReadMemEx(0x40013800, 0x14 Bytes, Flags = 0x02000004)
T6B4C 000:577.932   CPU_ReadMem(20 bytes @ 0x40013800)
T6B4C 000:578.770   Data:  00 00 00 00 00 00 00 00 00 00 00 00 00 00 00 00 ...
T6B4C 000:578.784 - 0.892ms returns 20 (0x14)
T6B4C 000:578.794 JLINK_ReadMemEx(0x40013814, 0x4 Bytes, Flags = 0x02000004)
T6B4C 000:578.803   CPU_ReadMem(4 bytes @ 0x40013814)
T6B4C 000:579.481   Data:  00 00 00 00
T6B4C 000:579.507 - 0.715ms returns 4 (0x4)
T6B4C 000:579.521 JLINK_ReadMemEx(0x4001381C, 0x4 Bytes, Flags = 0x02000004)
T6B4C 000:579.534   CPU_ReadMem(4 bytes @ 0x4001381C)
T6B4C 000:580.221   Data:  C0 00 00 00
T6B4C 000:580.239 - 0.720ms returns 4 (0x4)
T6B4C 000:580.249 JLINK_ReadMemEx(0x40013824, 0x8 Bytes, Flags = 0x02000004)
T6B4C 000:580.259   CPU_ReadMem(8 bytes @ 0x40013824)
T6B4C 000:580.875   Data:  00 00 00 00 00 00 00 00
T6B4C 000:580.889 - 0.642ms returns 8 (0x8)
T6B4C 000:580.897 JLINK_ReadMemEx(0x4001382C, 0x4 Bytes, Flags = 0x02000004)
T6B4C 000:580.912   CPU_ReadMem(4 bytes @ 0x4001382C)
T6B4C 000:581.584   Data:  00 00 00 00
T6B4C 000:581.592 - 0.697ms returns 4 (0x4)
T6B4C 000:653.819 JLINK_ReadMemEx(0x40004400, 0x14 Bytes, Flags = 0x02000004)
T6B4C 000:653.855   CPU_ReadMem(20 bytes @ 0x40004400)
T6B4C 000:654.638   Data:  00 00 00 00 00 00 00 00 00 00 00 00 00 00 00 00 ...
T6B4C 000:654.650 - 0.833ms returns 20 (0x14)
T6B4C 000:654.658 JLINK_ReadMemEx(0x40004414, 0x4 Bytes, Flags = 0x02000004)
T6B4C 000:654.667   CPU_ReadMem(4 bytes @ 0x40004414)
T6B4C 000:655.347   Data:  00 00 00 00
T6B4C 000:655.361 - 0.704ms returns 4 (0x4)
T6B4C 000:655.369 JLINK_ReadMemEx(0x4000441C, 0x4 Bytes, Flags = 0x02000004)
T6B4C 000:655.377   CPU_ReadMem(4 bytes @ 0x4000441C)
T6B4C 000:655.952   Data:  C0 00 00 00
T6B4C 000:655.960 - 0.594ms returns 4 (0x4)
T6B4C 000:655.967 JLINK_ReadMemEx(0x40004424, 0x8 Bytes, Flags = 0x02000004)
T6B4C 000:655.973   CPU_ReadMem(8 bytes @ 0x40004424)
T6B4C 000:656.636   Data:  00 00 00 00 00 00 00 00
T6B4C 000:656.652 - 0.687ms returns 8 (0x8)
T6B4C 000:656.660 JLINK_ReadMemEx(0x4000442C, 0x4 Bytes, Flags = 0x02000004)
T6B4C 000:656.669   CPU_ReadMem(4 bytes @ 0x4000442C)
T6B4C 000:657.347   Data:  00 00 00 00
T6B4C 000:657.361 - 0.702ms returns 4 (0x4)
T6B4C 002:316.810 JLINK_ReadMemEx(0x080001EC, 0x3C Bytes, Flags = 0x02000000)
T6B4C 002:316.838    -- Read from C cache (60 bytes @ 0x080001EC)
T6B4C 002:316.846   Data:  00 20 00 20 06 48 80 47 06 48 00 47 FE E7 FE E7 ...
T6B4C 002:316.853 - 0.045ms returns 60 (0x3C)
T6B4C 002:316.858 JLINK_ReadMemEx(0x080001EC, 0x2 Bytes, Flags = 0x02000000)
T6B4C 002:316.863    -- Read from C cache (2 bytes @ 0x080001EC)
T6B4C 002:316.870   Data:  00 20
T6B4C 002:316.877 - 0.021ms returns 2 (0x2)
T6B4C 002:316.883 JLINK_ReadMemEx(0x080001EE, 0x2 Bytes, Flags = 0x02000000)
T6B4C 002:316.888    -- Read from C cache (2 bytes @ 0x080001EE)
T6B4C 002:316.894   Data:  00 20
T6B4C 002:316.901 - 0.019ms returns 2 (0x2)
T6B4C 002:316.925 JLINK_ReadMemEx(0x080001EE, 0x2 Bytes, Flags = 0x02000000)
T6B4C 002:316.930    -- Read from C cache (2 bytes @ 0x080001EE)
T6B4C 002:316.936   Data:  00 20
T6B4C 002:316.943 - 0.020ms returns 2 (0x2)
T6B4C 002:316.948 JLINK_ReadMemEx(0x080001F0, 0x3C Bytes, Flags = 0x02000000)
T6B4C 002:316.953    -- Read from C cache (60 bytes @ 0x080001F0)
T6B4C 002:316.959   Data:  06 48 80 47 06 48 00 47 FE E7 FE E7 FE E7 FE E7 ...
T6B4C 002:316.965 - 0.019ms returns 60 (0x3C)
T6B4C 002:316.971 JLINK_ReadMemEx(0x080001F0, 0x2 Bytes, Flags = 0x02000000)
T6B4C 002:316.975    -- Read from C cache (2 bytes @ 0x080001F0)
T6B4C 002:316.982   Data:  06 48
T6B4C 002:316.988 - 0.019ms returns 2 (0x2)
T6B4C 002:316.997 JLINK_ReadMemEx(0x080001F0, 0x3C Bytes, Flags = 0x02000000)
T6B4C 002:317.001    -- Read from C cache (60 bytes @ 0x080001F0)
T6B4C 002:317.008   Data:  06 48 80 47 06 48 00 47 FE E7 FE E7 FE E7 FE E7 ...
T6B4C 002:317.014 - 0.019ms returns 60 (0x3C)
T6B4C 002:317.019 JLINK_ReadMemEx(0x080001F0, 0x2 Bytes, Flags = 0x02000000)
T6B4C 002:317.024    -- Read from C cache (2 bytes @ 0x080001F0)
T6B4C 002:317.030   Data:  06 48
T6B4C 002:317.036 - 0.019ms returns 2 (0x2)
T6B4C 002:317.041 JLINK_ReadMemEx(0x080001F2, 0x2 Bytes, Flags = 0x02000000)
T6B4C 002:317.046    -- Read from C cache (2 bytes @ 0x080001F2)
T6B4C 002:317.052   Data:  80 47
T6B4C 002:317.059 - 0.019ms returns 2 (0x2)
T6B4C 002:317.067 JLINK_ReadMemEx(0x080001F2, 0x2 Bytes, Flags = 0x02000000)
T6B4C 002:317.072    -- Read from C cache (2 bytes @ 0x080001F2)
T6B4C 002:317.078   Data:  80 47
T6B4C 002:317.084 - 0.019ms returns 2 (0x2)
T6B4C 002:317.089 JLINK_ReadMemEx(0x080001F4, 0x3C Bytes, Flags = 0x02000000)
T6B4C 002:317.094    -- Read from C cache (60 bytes @ 0x080001F4)
T6B4C 002:317.101   Data:  06 48 00 47 FE E7 FE E7 FE E7 FE E7 FE E7 FE E7 ...
T6B4C 002:317.107 - 0.020ms returns 60 (0x3C)
T6B4C 002:317.113 JLINK_ReadMemEx(0x080001F4, 0x2 Bytes, Flags = 0x02000000)
T6B4C 002:317.117    -- Read from C cache (2 bytes @ 0x080001F4)
T6B4C 002:317.129   Data:  06 48
T6B4C 002:317.135 - 0.024ms returns 2 (0x2)
T6B4C 002:317.142 JLINK_ReadMemEx(0x080001F4, 0x3C Bytes, Flags = 0x02000000)
T6B4C 002:317.147    -- Read from C cache (60 bytes @ 0x080001F4)
T6B4C 002:317.153   Data:  06 48 00 47 FE E7 FE E7 FE E7 FE E7 FE E7 FE E7 ...
T6B4C 002:317.160 - 0.020ms returns 60 (0x3C)
T6B4C 002:317.165 JLINK_ReadMemEx(0x080001F4, 0x2 Bytes, Flags = 0x02000000)
T6B4C 002:317.170    -- Read from C cache (2 bytes @ 0x080001F4)
T6B4C 002:317.177   Data:  06 48
T6B4C 002:317.183 - 0.019ms returns 2 (0x2)
T6B4C 002:317.188 JLINK_ReadMemEx(0x080001F6, 0x2 Bytes, Flags = 0x02000000)
T6B4C 002:317.193    -- Read from C cache (2 bytes @ 0x080001F6)
T6B4C 002:317.199   Data:  00 47
T6B4C 002:317.205 - 0.019ms returns 2 (0x2)
T6B4C 002:639.678 JLINK_HasError()
T6B4C 002:639.699 JLINK_ReadReg(R0)
T6B4C 002:640.327 - 0.636ms returns 0x00000000
T6B4C 002:640.341 JLINK_ReadReg(R1)
T6B4C 002:640.347 - 0.007ms returns 0x00000000
T6B4C 002:640.352 JLINK_ReadReg(R2)
T6B4C 002:640.357 - 0.007ms returns 0x00000000
T6B4C 002:640.362 JLINK_ReadReg(R3)
T6B4C 002:640.367 - 0.007ms returns 0x00000000
T6B4C 002:640.373 JLINK_ReadReg(R4)
T6B4C 002:640.377 - 0.006ms returns 0x00000000
T6B4C 002:640.383 JLINK_ReadReg(R5)
T6B4C 002:640.388 - 0.007ms returns 0x00000000
T6B4C 002:640.394 JLINK_ReadReg(R6)
T6B4C 002:640.398 - 0.007ms returns 0x00000000
T6B4C 002:640.404 JLINK_ReadReg(R7)
T6B4C 002:640.408 - 0.007ms returns 0x00000000
T6B4C 002:640.414 JLINK_ReadReg(R8)
T6B4C 002:640.431 - 0.019ms returns 0x00000000
T6B4C 002:640.436 JLINK_ReadReg(R9)
T6B4C 002:640.441 - 0.006ms returns 0x00000000
T6B4C 002:640.446 JLINK_ReadReg(R10)
T6B4C 002:640.451 - 0.007ms returns 0x00000000
T6B4C 002:640.456 JLINK_ReadReg(R11)
T6B4C 002:640.461 - 0.006ms returns 0x00000000
T6B4C 002:640.466 JLINK_ReadReg(R12)
T6B4C 002:640.470 - 0.006ms returns 0x00000000
T6B4C 002:640.475 JLINK_ReadReg(R13 (SP))
T6B4C 002:640.480 - 0.007ms returns 0x20002000
T6B4C 002:640.485 JLINK_ReadReg(R14)
T6B4C 002:640.490 - 0.006ms returns 0xFFFFFFFF
T6B4C 002:640.495 JLINK_ReadReg(R15 (PC))
T6B4C 002:640.500 - 0.007ms returns 0x080001F0
T6B4C 002:640.505 JLINK_ReadReg(XPSR)
T6B4C 002:640.510 - 0.006ms returns 0x01000000
T6B4C 002:640.515 JLINK_ReadReg(MSP)
T6B4C 002:640.519 - 0.006ms returns 0x20002000
T6B4C 002:640.525 JLINK_ReadReg(PSP)
T6B4C 002:640.529 - 0.007ms returns 0x00000000
T6B4C 002:640.535 JLINK_ReadReg(CFBP)
T6B4C 002:640.539 - 0.006ms returns 0x00000000
T6B4C 002:640.544 JLINK_ReadReg(FPSCR)
T6B4C 002:645.685 - 5.149ms returns 0x00000000
T6B4C 002:645.699 JLINK_ReadReg(FPS0)
T6B4C 002:645.706 - 0.009ms returns 0x00000000
T6B4C 002:645.711 JLINK_ReadReg(FPS1)
T6B4C 002:645.716 - 0.006ms returns 0x00000000
T6B4C 002:645.722 JLINK_ReadReg(FPS2)
T6B4C 002:645.726 - 0.007ms returns 0x00000000
T6B4C 002:645.731 JLINK_ReadReg(FPS3)
T6B4C 002:645.736 - 0.006ms returns 0x00000000
T6B4C 002:645.741 JLINK_ReadReg(FPS4)
T6B4C 002:645.746 - 0.006ms returns 0x00000000
T6B4C 002:645.751 JLINK_ReadReg(FPS5)
T6B4C 002:645.755 - 0.006ms returns 0x00000000
T6B4C 002:645.760 JLINK_ReadReg(FPS6)
T6B4C 002:645.765 - 0.006ms returns 0x00000000
T6B4C 002:645.770 JLINK_ReadReg(FPS7)
T6B4C 002:645.774 - 0.006ms returns 0x00000000
T6B4C 002:645.780 JLINK_ReadReg(FPS8)
T6B4C 002:645.784 - 0.006ms returns 0x00000000
T6B4C 002:645.789 JLINK_ReadReg(FPS9)
T6B4C 002:645.794 - 0.006ms returns 0x00000000
T6B4C 002:645.799 JLINK_ReadReg(FPS10)
T6B4C 002:645.803 - 0.006ms returns 0x00000000
T6B4C 002:645.808 JLINK_ReadReg(FPS11)
T6B4C 002:645.813 - 0.006ms returns 0x00000000
T6B4C 002:645.818 JLINK_ReadReg(FPS12)
T6B4C 002:645.822 - 0.006ms returns 0x00000000
T6B4C 002:645.828 JLINK_ReadReg(FPS13)
T6B4C 002:645.832 - 0.006ms returns 0x00000000
T6B4C 002:645.837 JLINK_ReadReg(FPS14)
T6B4C 002:645.842 - 0.006ms returns 0x00000000
T6B4C 002:645.847 JLINK_ReadReg(FPS15)
T6B4C 002:645.851 - 0.006ms returns 0x00000000
T6B4C 002:645.856 JLINK_ReadReg(FPS16)
T6B4C 002:645.861 - 0.010ms returns 0x00000000
T6B4C 002:645.871 JLINK_ReadReg(FPS17)
T6B4C 002:645.876 - 0.006ms returns 0x00000000
T6B4C 002:645.881 JLINK_ReadReg(FPS18)
T6B4C 002:645.885 - 0.006ms returns 0x00000000
T6B4C 002:645.890 JLINK_ReadReg(FPS19)
T6B4C 002:645.895 - 0.006ms returns 0x00000000
T6B4C 002:645.900 JLINK_ReadReg(FPS20)
T6B4C 002:645.904 - 0.006ms returns 0x00000000
T6B4C 002:645.909 JLINK_ReadReg(FPS21)
T6B4C 002:645.914 - 0.006ms returns 0x00000000
T6B4C 002:645.919 JLINK_ReadReg(FPS22)
T6B4C 002:645.923 - 0.006ms returns 0x00000000
T6B4C 002:645.928 JLINK_ReadReg(FPS23)
T6B4C 002:645.933 - 0.006ms returns 0x00000000
T6B4C 002:645.938 JLINK_ReadReg(FPS24)
T6B4C 002:645.943 - 0.006ms returns 0x00000000
T6B4C 002:645.948 JLINK_ReadReg(FPS25)
T6B4C 002:645.952 - 0.006ms returns 0x00000000
T6B4C 002:645.957 JLINK_ReadReg(FPS26)
T6B4C 002:645.962 - 0.006ms returns 0x00000000
T6B4C 002:645.967 JLINK_ReadReg(FPS27)
T6B4C 002:645.971 - 0.006ms returns 0x00000000
T6B4C 002:645.976 JLINK_ReadReg(FPS28)
T6B4C 002:645.981 - 0.006ms returns 0x00000000
T6B4C 002:645.986 JLINK_ReadReg(FPS29)
T6B4C 002:645.990 - 0.006ms returns 0x00000000
T6B4C 002:645.996 JLINK_ReadReg(FPS30)
T6B4C 002:646.000 - 0.006ms returns 0x00000000
T6B4C 002:646.005 JLINK_ReadReg(FPS31)
T6B4C 002:646.010 - 0.006ms returns 0x00000000
T6B4C 002:883.830 JLINK_ReadMemEx(0x20000404, 0x20 Bytes, Flags = 0x02000000)
T6B4C 002:883.866   CPU_ReadMem(64 bytes @ 0x20000400)
T6B4C 002:885.078    -- Updating C cache (64 bytes @ 0x20000400)
T6B4C 002:885.089    -- Read from C cache (32 bytes @ 0x20000404)
T6B4C 002:885.096   Data:  00 00 00 00 00 00 00 00 00 00 00 00 00 00 00 00 ...
T6B4C 002:885.104 - 1.276ms returns 32 (0x20)
TC360 002:923.896 JLINK_ReadMemEx(0x080001F0, 0x2 Bytes, Flags = 0x02000000)
TC360 002:923.925    -- Read from C cache (2 bytes @ 0x080001F0)
TC360 002:923.933   Data:  06 48
TC360 002:923.940 - 0.047ms returns 2 (0x2)
TC360 002:923.947 JLINK_HasError()
TC360 002:923.955 JLINK_SetBPEx(Addr = 0x08006900, Type = 0xFFFFFFF2)
TC360 002:923.965 - 0.012ms returns 0x00000001
TC360 002:923.971 JLINK_HasError()
TC360 002:923.976 JLINK_SetBPEx(Addr = 0x08006966, Type = 0xFFFFFFF2)
TC360 002:923.981 - 0.007ms returns 0x00000002
TC360 002:923.986 JLINK_HasError()
TC360 002:923.991 JLINK_SetBPEx(Addr = 0x08006972, Type = 0xFFFFFFF2)
TC360 002:923.996 - 0.007ms returns 0x00000003
TC360 002:924.001 JLINK_HasError()
TC360 002:924.006 JLINK_SetBPEx(Addr = 0x0800699C, Type = 0xFFFFFFF2)
TC360 002:924.011 - 0.007ms returns 0x00000004
TC360 002:924.017 JLINK_HasError()
TC360 002:924.022 JLINK_SetBPEx(Addr = 0x0800695C, Type = 0xFFFFFFF2)
TC360 002:924.027 - 0.007ms returns 0x00000005
TC360 002:924.033 JLINK_HasError()
TC360 002:924.039 JLINK_SetBPEx(Addr = 0x08006888, Type = 0xFFFFFFF2)
TC360 002:924.044 - 0.008ms returns 0x00000006
TC360 002:924.051 JLINK_HasError()
TC360 002:924.056 JLINK_SetBPEx(Addr = 0x08006890, Type = 0xFFFFFFF2)
TC360 002:924.065    -- BP[0] @ 0x08006900 converted into FlashBP
TC360 002:924.072 - 0.018ms returns 0x00000007
TC360 002:924.078 JLINK_HasError()
TC360 002:924.083 JLINK_SetBPEx(Addr = 0x080068A0, Type = 0xFFFFFFF2)
TC360 002:924.089    -- BP[1] @ 0x08006966 converted into FlashBP
TC360 002:924.096 - 0.015ms returns 0x00000008
TC360 002:924.102 JLINK_HasError()
TC360 002:924.108 JLINK_SetBPEx(Addr = 0x080067C4, Type = 0xFFFFFFF2)
TC360 002:924.113    -- BP[2] @ 0x08006972 converted into FlashBP
TC360 002:924.120 - 0.014ms returns 0x00000009
TC360 002:924.125 JLINK_HasError()
TC360 002:924.130 JLINK_SetBPEx(Addr = 0x080067CE, Type = 0xFFFFFFF2)
TC360 002:924.135    -- BP[3] @ 0x0800699C converted into FlashBP
TC360 002:924.143 - 0.014ms returns 0x0000000A
TC360 002:924.148 JLINK_HasError()
TC360 002:924.153 JLINK_SetBPEx(Addr = 0x080067D8, Type = 0xFFFFFFF2)
TC360 002:924.158    -- BP[4] @ 0x0800695C converted into FlashBP
TC360 002:924.165 - 0.014ms returns 0x0000000B
TC360 002:924.170 JLINK_HasError()
TC360 002:924.175 JLINK_SetBPEx(Addr = 0x080067F4, Type = 0xFFFFFFF2)
TC360 002:924.231    -- BP[5] @ 0x08006888 converted into FlashBP
TC360 002:924.240 - 0.067ms returns 0x0000000C
TC360 002:924.246 JLINK_HasError()
TC360 002:924.251 JLINK_SetBPEx(Addr = 0x08006804, Type = 0xFFFFFFF2)
TC360 002:924.256    -- BP[6] @ 0x08006890 converted into FlashBP
TC360 002:924.262 - 0.013ms returns 0x0000000D
TC360 002:924.267 JLINK_HasError()
TC360 002:924.272 JLINK_SetBPEx(Addr = 0x08006814, Type = 0xFFFFFFF2)
TC360 002:924.277    -- BP[7] @ 0x080068A0 converted into FlashBP
TC360 002:924.284 - 0.013ms returns 0x0000000E
TC360 002:924.289 JLINK_HasError()
TC360 002:924.294 JLINK_SetBPEx(Addr = 0x08007FAC, Type = 0xFFFFFFF2)
TC360 002:924.299    -- BP[8] @ 0x080067C4 converted into FlashBP
TC360 002:924.305 - 0.013ms returns 0x0000000F
TC360 002:924.310 JLINK_HasError()
TC360 002:924.315 JLINK_SetBPEx(Addr = 0x080068A8, Type = 0xFFFFFFF2)
TC360 002:924.320    -- BP[9] @ 0x080067CE converted into FlashBP
TC360 002:924.326 - 0.013ms returns 0x00000010
TC360 002:924.331 JLINK_HasError()
TC360 002:924.337 JLINK_HasError()
TC360 002:924.342 JLINK_Go()
TC360 002:924.349    -- Read from C cache (2 bytes @ 0x080001F0)
TC360 002:924.358   CPU_ReadMem(4 bytes @ 0xE000ED18)
TC360 002:924.968   CPU_WriteMem(4 bytes @ 0xE000ED18)
TC360 002:925.610   CPU_ReadMem(4 bytes @ 0xE000ED18)
TC360 002:926.220   CPU_WriteMem(4 bytes @ 0xE000ED18)
TC360 002:926.947    -- Read from C cache (4 bytes @ 0x0800020C)
TC360 002:926.963   -- Simulated
TC360 002:926.971    -- Read from C cache (2 bytes @ 0x080001F2)
TC360 002:927.021   -- Simulated
TC360 002:927.030   CPU_ReadMem(64 bytes @ 0x08006A00)
TC360 002:928.323    -- Updating C cache (64 bytes @ 0x08006A00)
TC360 002:928.335    -- Read from C cache (2 bytes @ 0x08006A34)
TC360 002:928.344   CPU_ReadMem(64 bytes @ 0x08006A40)
TC360 002:929.690    -- Updating C cache (64 bytes @ 0x08006A40)
TC360 002:929.703    -- Read from C cache (4 bytes @ 0x08006A44)
TC360 002:929.711   -- Simulated
TC360 002:929.719    -- Read from C cache (2 bytes @ 0x08006A36)
TC360 002:929.726   -- Not simulated
TC360 002:929.737   CPU_ReadMem(4 bytes @ 0xE000ED90)
TC360 002:930.330   CPU_ReadMem(4 bytes @ 0xE000ED94)
TC360 002:930.973    -- Start of preparing flash programming
TC360 002:931.006    -- Calculating RAM usage
TC360 002:931.262    -- RAM usage = 10340 Bytes
TC360 002:931.271    -- Preserving CPU registers
TC360 002:931.289    -- Preparing memory
TC360 002:931.296    -- Determining CPU clock frequency
TC360 002:974.975    -- CPU frequency = 16006 kHz
TC360 002:975.001    -- Preparing target
TC360 002:975.009    -- Preserving target RAM temporarily used for programming
TC360 003:077.922    -- Downloading RAMCode
TC360 003:115.088    -- Preparing RAMCode
TC360 003:127.052    -- Checking target RAM
TC360 003:130.204    -- End of preparing flash programming
TC360 003:130.223   CPU_ReadMem(2048 bytes @ 0x08006800)
TC360 003:151.404    -- Updating flash cache (2048 bytes @ 0x08006800)
TC360 003:151.453    -- Programming range 0x08006800 - 0x08006FFF (  1 Sector, 2 KB)
TC360 003:151.556   Looking for J-Link GUI Server exe at: D:\ProgramFiles_Professional\Keil_v5\ARM\Segger\JLinkGUIServer.exe
TC360 003:151.675   Looking for J-Link GUI Server exe at: C:\Program Files (x86)\SEGGER\JLink\JLinkGUIServer.exe
TC360 003:451.675   Failed to connect to J-Link GUI Server.
TC360 003:539.214   CPU_ReadMem(2048 bytes @ 0x08006000)
TC360 003:560.397    -- Updating flash cache (2048 bytes @ 0x08006000)
TC360 003:560.440    -- Programming range 0x08006000 - 0x080067FF (  1 Sector, 2 KB)
TC360 003:632.465    -- Start of restoring
TC360 003:632.498    -- Restoring RAMCode
TC360 003:637.570    -- Restoring target memory
TC360 003:754.177    -- Restore target
TC360 003:754.207    -- Restore memory
TC360 003:754.213    -- Restoring CPU registers
TC360 003:754.230    -- End of restoring
TC360 003:755.875   CPU_WriteMem(4 bytes @ 0xE0002000)
TC360 003:756.521   CPU_WriteMem(4 bytes @ 0xE0002000)
TC360 003:757.106   CPU_WriteMem(4 bytes @ 0xE0002000)
TC360 003:757.733   CPU_WriteMem(4 bytes @ 0xE0002000)
TC360 003:758.368   CPU_WriteMem(4 bytes @ 0xE0002000)
TC360 003:758.997   CPU_WriteMem(4 bytes @ 0xE0002000)
TC360 003:759.629   CPU_ReadMem(4 bytes @ 0xE0001000)
TC360 003:760.205   CPU_WriteMem(4 bytes @ 0xE0002008)
TC360 003:760.224   CPU_WriteMem(4 bytes @ 0xE000200C)
TC360 003:760.233   CPU_WriteMem(4 bytes @ 0xE0002010)
TC360 003:760.241   CPU_WriteMem(4 bytes @ 0xE0002014)
TC360 003:760.249   CPU_WriteMem(4 bytes @ 0xE0002018)
TC360 003:760.257   CPU_WriteMem(4 bytes @ 0xE000201C)
TC360 003:766.229 - 841.899ms
TC360 003:866.392 JLINK_HasError()
TC360 003:866.432 JLINK_IsHalted()
TC360 003:869.961 - 3.541ms returns TRUE
TC360 003:869.985 JLINK_HasError()
TC360 003:869.992 JLINK_Halt()
TC360 003:869.996 - 0.007ms returns 0x00
TC360 003:870.003 JLINK_IsHalted()
TC360 003:870.008 - 0.007ms returns TRUE
TC360 003:870.042 JLINK_IsHalted()
TC360 003:870.047 - 0.006ms returns TRUE
TC360 003:870.052 JLINK_IsHalted()
TC360 003:870.056 - 0.006ms returns TRUE
TC360 003:870.062 JLINK_HasError()
TC360 003:870.068 JLINK_ReadReg(R15 (PC))
TC360 003:870.075 - 0.009ms returns 0x08007FAC
TC360 003:870.080 JLINK_ReadReg(XPSR)
TC360 003:870.085 - 0.006ms returns 0x61000000
TC360 003:870.093 JLINK_HasError()
TC360 003:870.098 JLINK_ClrBPEx(BPHandle = 0x00000001)
TC360 003:870.103 - 0.006ms returns 0x00
TC360 003:870.109 JLINK_HasError()
TC360 003:870.114 JLINK_ClrBPEx(BPHandle = 0x00000002)
TC360 003:870.119 - 0.006ms returns 0x00
TC360 003:870.124 JLINK_HasError()
TC360 003:870.129 JLINK_ClrBPEx(BPHandle = 0x00000003)
TC360 003:870.134 - 0.007ms returns 0x00
TC360 003:870.139 JLINK_HasError()
TC360 003:870.144 JLINK_ClrBPEx(BPHandle = 0x00000004)
TC360 003:870.150 - 0.007ms returns 0x00
TC360 003:870.155 JLINK_HasError()
TC360 003:870.161 JLINK_ClrBPEx(BPHandle = 0x00000005)
TC360 003:870.166 - 0.007ms returns 0x00
TC360 003:870.171 JLINK_HasError()
TC360 003:870.177 JLINK_ClrBPEx(BPHandle = 0x00000006)
TC360 003:870.182 - 0.007ms returns 0x00
TC360 003:870.188 JLINK_HasError()
TC360 003:870.192 JLINK_ClrBPEx(BPHandle = 0x00000007)
TC360 003:870.197 - 0.007ms returns 0x00
TC360 003:870.202 JLINK_HasError()
TC360 003:870.208 JLINK_ClrBPEx(BPHandle = 0x00000008)
TC360 003:870.212 - 0.006ms returns 0x00
TC360 003:870.217 JLINK_HasError()
TC360 003:870.222 JLINK_ClrBPEx(BPHandle = 0x00000009)
TC360 003:870.227 - 0.006ms returns 0x00
TC360 003:870.232 JLINK_HasError()
TC360 003:870.237 JLINK_ClrBPEx(BPHandle = 0x0000000A)
TC360 003:870.241 - 0.006ms returns 0x00
TC360 003:870.247 JLINK_HasError()
TC360 003:870.252 JLINK_ClrBPEx(BPHandle = 0x0000000B)
TC360 003:870.256 - 0.006ms returns 0x00
TC360 003:870.261 JLINK_HasError()
TC360 003:870.266 JLINK_ClrBPEx(BPHandle = 0x0000000C)
TC360 003:870.271 - 0.006ms returns 0x00
TC360 003:870.276 JLINK_HasError()
TC360 003:870.281 JLINK_ClrBPEx(BPHandle = 0x0000000D)
TC360 003:870.285 - 0.006ms returns 0x00
TC360 003:870.290 JLINK_HasError()
TC360 003:870.295 JLINK_ClrBPEx(BPHandle = 0x0000000E)
TC360 003:870.300 - 0.006ms returns 0x00
TC360 003:870.305 JLINK_HasError()
TC360 003:870.310 JLINK_ClrBPEx(BPHandle = 0x0000000F)
TC360 003:870.314 - 0.006ms returns 0x00
TC360 003:870.319 JLINK_HasError()
TC360 003:870.324 JLINK_ClrBPEx(BPHandle = 0x00000010)
TC360 003:870.329 - 0.006ms returns 0x00
TC360 003:870.334 JLINK_HasError()
TC360 003:870.339 JLINK_HasError()
TC360 003:870.344 JLINK_ReadMemU32(0xE000ED30, 0x1 Items)
TC360 003:870.354   CPU_ReadMem(4 bytes @ 0xE000ED30)
TC360 003:870.994   Data:  03 00 00 00
TC360 003:871.010 - 0.669ms returns 1 (0x1)
TC360 003:871.019 JLINK_ReadMemU32(0xE0001028, 0x1 Items)
TC360 003:871.028   CPU_ReadMem(4 bytes @ 0xE0001028)
TC360 003:871.584   Data:  00 00 00 00
TC360 003:871.598   Debug reg: DWT_FUNC[0]
TC360 003:871.604 - 0.587ms returns 1 (0x1)
TC360 003:871.612 JLINK_ReadMemU32(0xE0001038, 0x1 Items)
TC360 003:871.621   CPU_ReadMem(4 bytes @ 0xE0001038)
TC360 003:872.245   Data:  00 02 00 00
TC360 003:872.267   Debug reg: DWT_FUNC[1]
TC360 003:872.274 - 0.664ms returns 1 (0x1)
TC360 003:872.280 JLINK_ReadMemU32(0xE0001048, 0x1 Items)
TC360 003:872.289   CPU_ReadMem(4 bytes @ 0xE0001048)
TC360 003:872.963   Data:  00 00 00 00
TC360 003:872.975   Debug reg: DWT_FUNC[2]
TC360 003:872.982 - 0.703ms returns 1 (0x1)
TC360 003:872.988 JLINK_ReadMemU32(0xE0001058, 0x1 Items)
TC360 003:872.997   CPU_ReadMem(4 bytes @ 0xE0001058)
TC360 003:873.583   Data:  00 00 00 00
TC360 003:873.594   Debug reg: DWT_FUNC[3]
TC360 003:873.601 - 0.614ms returns 1 (0x1)
TC360 003:873.627 JLINK_HasError()
TC360 003:873.633 JLINK_ReadReg(R0)
TC360 003:873.639 - 0.008ms returns 0x08007FAD
TC360 003:873.645 JLINK_ReadReg(R1)
TC360 003:873.649 - 0.006ms returns 0x20002000
TC360 003:873.654 JLINK_ReadReg(R2)
TC360 003:873.659 - 0.007ms returns 0x00000000
TC360 003:873.665 JLINK_ReadReg(R3)
TC360 003:873.669 - 0.006ms returns 0x080076F5
TC360 003:873.674 JLINK_ReadReg(R4)
TC360 003:873.679 - 0.006ms returns 0x08008138
TC360 003:873.684 JLINK_ReadReg(R5)
TC360 003:873.688 - 0.006ms returns 0x08008138
TC360 003:873.693 JLINK_ReadReg(R6)
TC360 003:873.698 - 0.006ms returns 0x00000000
TC360 003:873.703 JLINK_ReadReg(R7)
TC360 003:873.707 - 0.007ms returns 0x00000000
TC360 003:873.713 JLINK_ReadReg(R8)
TC360 003:873.718 - 0.007ms returns 0x00000000
TC360 003:873.724 JLINK_ReadReg(R9)
TC360 003:873.729 - 0.006ms returns 0x00000000
TC360 003:873.734 JLINK_ReadReg(R10)
TC360 003:873.739 - 0.007ms returns 0x00000000
TC360 003:873.744 JLINK_ReadReg(R11)
TC360 003:873.749 - 0.007ms returns 0x00000000
TC360 003:873.755 JLINK_ReadReg(R12)
TC360 003:873.760 - 0.006ms returns 0x00000000
TC360 003:873.765 JLINK_ReadReg(R13 (SP))
TC360 003:873.770 - 0.006ms returns 0x20002000
TC360 003:873.775 JLINK_ReadReg(R14)
TC360 003:873.780 - 0.007ms returns 0x080007B9
TC360 003:873.785 JLINK_ReadReg(R15 (PC))
TC360 003:873.790 - 0.007ms returns 0x08007FAC
TC360 003:873.796 JLINK_ReadReg(XPSR)
TC360 003:873.801 - 0.007ms returns 0x61000000
TC360 003:873.806 JLINK_ReadReg(MSP)
TC360 003:873.811 - 0.006ms returns 0x20002000
TC360 003:873.816 JLINK_ReadReg(PSP)
TC360 003:873.821 - 0.006ms returns 0x00000000
TC360 003:873.826 JLINK_ReadReg(CFBP)
TC360 003:873.830 - 0.006ms returns 0x00000000
TC360 003:873.835 JLINK_ReadReg(FPSCR)
TC360 003:878.928 - 5.103ms returns 0x00000000
TC360 003:878.944 JLINK_ReadReg(FPS0)
TC360 003:878.951 - 0.008ms returns 0x00000000
TC360 003:878.956 JLINK_ReadReg(FPS1)
TC360 003:878.961 - 0.007ms returns 0x00000000
TC360 003:878.967 JLINK_ReadReg(FPS2)
TC360 003:878.971 - 0.006ms returns 0x00000000
TC360 003:878.976 JLINK_ReadReg(FPS3)
TC360 003:878.982 - 0.007ms returns 0x00000000
TC360 003:878.987 JLINK_ReadReg(FPS4)
TC360 003:878.992 - 0.006ms returns 0x00000000
TC360 003:878.997 JLINK_ReadReg(FPS5)
TC360 003:879.002 - 0.007ms returns 0x00000000
TC360 003:879.008 JLINK_ReadReg(FPS6)
TC360 003:879.012 - 0.007ms returns 0x00000000
TC360 003:879.018 JLINK_ReadReg(FPS7)
TC360 003:879.023 - 0.007ms returns 0x00000000
TC360 003:879.028 JLINK_ReadReg(FPS8)
TC360 003:879.033 - 0.006ms returns 0x00000000
TC360 003:879.038 JLINK_ReadReg(FPS9)
TC360 003:879.042 - 0.007ms returns 0x00000000
TC360 003:879.048 JLINK_ReadReg(FPS10)
TC360 003:879.053 - 0.007ms returns 0x00000000
TC360 003:879.058 JLINK_ReadReg(FPS11)
TC360 003:879.063 - 0.007ms returns 0x00000000
TC360 003:879.068 JLINK_ReadReg(FPS12)
TC360 003:879.073 - 0.006ms returns 0x00000000
TC360 003:879.078 JLINK_ReadReg(FPS13)
TC360 003:879.082 - 0.006ms returns 0x00000000
TC360 003:879.087 JLINK_ReadReg(FPS14)
TC360 003:879.092 - 0.006ms returns 0x00000000
TC360 003:879.097 JLINK_ReadReg(FPS15)
TC360 003:879.102 - 0.006ms returns 0x00000000
TC360 003:879.107 JLINK_ReadReg(FPS16)
TC360 003:879.111 - 0.006ms returns 0x00000000
TC360 003:879.117 JLINK_ReadReg(FPS17)
TC360 003:879.121 - 0.006ms returns 0x00000000
TC360 003:879.126 JLINK_ReadReg(FPS18)
TC360 003:879.131 - 0.006ms returns 0x00000000
TC360 003:879.139 JLINK_ReadReg(FPS19)
TC360 003:879.146 - 0.008ms returns 0x00000000
TC360 003:879.151 JLINK_ReadReg(FPS20)
TC360 003:879.155 - 0.006ms returns 0x00000000
TC360 003:879.160 JLINK_ReadReg(FPS21)
TC360 003:879.165 - 0.006ms returns 0x00000000
TC360 003:879.170 JLINK_ReadReg(FPS22)
TC360 003:879.175 - 0.006ms returns 0x00000000
TC360 003:879.180 JLINK_ReadReg(FPS23)
TC360 003:879.184 - 0.006ms returns 0x00000000
TC360 003:879.189 JLINK_ReadReg(FPS24)
TC360 003:879.194 - 0.006ms returns 0x00000000
TC360 003:879.199 JLINK_ReadReg(FPS25)
TC360 003:879.204 - 0.007ms returns 0x00000000
TC360 003:879.209 JLINK_ReadReg(FPS26)
TC360 003:879.213 - 0.006ms returns 0x00000000
TC360 003:879.219 JLINK_ReadReg(FPS27)
TC360 003:879.223 - 0.006ms returns 0x00000000
TC360 003:879.228 JLINK_ReadReg(FPS28)
TC360 003:879.233 - 0.006ms returns 0x00000000
TC360 003:879.238 JLINK_ReadReg(FPS29)
TC360 003:879.242 - 0.006ms returns 0x00000000
TC360 003:879.248 JLINK_ReadReg(FPS30)
TC360 003:879.252 - 0.006ms returns 0x00000000
TC360 003:879.257 JLINK_ReadReg(FPS31)
TC360 003:879.262 - 0.006ms returns 0x00000000
T6B4C 003:880.029 JLINK_ReadMemEx(0x20001FD0, 0x4 Bytes, Flags = 0x02000000)
T6B4C 003:880.050   CPU_ReadMem(64 bytes @ 0x20001FC0)
T6B4C 003:881.309    -- Updating C cache (64 bytes @ 0x20001FC0)
T6B4C 003:881.322    -- Read from C cache (4 bytes @ 0x20001FD0)
T6B4C 003:881.329   Data:  00 00 00 00
T6B4C 003:881.335 - 1.308ms returns 4 (0x4)
T6B4C 003:885.859 JLINK_ReadMemEx(0x20001FD0, 0x4 Bytes, Flags = 0x02000000)
T6B4C 003:885.876    -- Read from C cache (4 bytes @ 0x20001FD0)
T6B4C 003:885.884   Data:  00 00 00 00
T6B4C 003:885.890 - 0.033ms returns 4 (0x4)
T6B4C 003:885.920 JLINK_ReadMemEx(0x20000404, 0x20 Bytes, Flags = 0x02000000)
T6B4C 003:885.928   CPU_ReadMem(64 bytes @ 0x20000400)
T6B4C 003:887.198    -- Updating C cache (64 bytes @ 0x20000400)
T6B4C 003:887.212    -- Read from C cache (32 bytes @ 0x20000404)
T6B4C 003:887.219   Data:  00 00 00 00 00 00 00 00 00 00 00 00 00 00 00 00 ...
T6B4C 003:887.226 - 1.308ms returns 32 (0x20)
T6B4C 003:887.366 JLINK_ReadMemEx(0x40013800, 0x14 Bytes, Flags = 0x02000004)
T6B4C 003:887.376   CPU_ReadMem(20 bytes @ 0x40013800)
T6B4C 003:888.121   Data:  00 00 00 00 00 00 00 00 00 00 00 00 00 00 00 00 ...
T6B4C 003:888.136 - 0.773ms returns 20 (0x14)
T6B4C 003:888.146 JLINK_ReadMemEx(0x40013814, 0x4 Bytes, Flags = 0x02000004)
T6B4C 003:888.155   CPU_ReadMem(4 bytes @ 0x40013814)
T6B4C 003:888.873   Data:  00 00 00 00
T6B4C 003:888.886 - 0.742ms returns 4 (0x4)
T6B4C 003:888.894 JLINK_ReadMemEx(0x4001381C, 0x4 Bytes, Flags = 0x02000004)
T6B4C 003:888.902   CPU_ReadMem(4 bytes @ 0x4001381C)
T6B4C 003:889.463   Data:  C0 00 00 00
T6B4C 003:889.476 - 0.584ms returns 4 (0x4)
T6B4C 003:889.484 JLINK_ReadMemEx(0x40013824, 0x8 Bytes, Flags = 0x02000004)
T6B4C 003:889.493   CPU_ReadMem(8 bytes @ 0x40013824)
T6B4C 003:890.122   Data:  00 00 00 00 00 00 00 00
T6B4C 003:890.136 - 0.653ms returns 8 (0x8)
T6B4C 003:890.143 JLINK_ReadMemEx(0x4001382C, 0x4 Bytes, Flags = 0x02000004)
T6B4C 003:890.152   CPU_ReadMem(4 bytes @ 0x4001382C)
T6B4C 003:890.718   Data:  00 00 00 00
T6B4C 003:890.731 - 0.589ms returns 4 (0x4)
T6B4C 003:890.976 JLINK_ReadMemEx(0x40004400, 0x14 Bytes, Flags = 0x02000004)
T6B4C 003:890.986   CPU_ReadMem(20 bytes @ 0x40004400)
T6B4C 003:891.746   Data:  00 00 00 00 00 00 00 00 00 00 00 00 00 00 00 00 ...
T6B4C 003:891.755 - 0.781ms returns 20 (0x14)
T6B4C 003:891.763 JLINK_ReadMemEx(0x40004414, 0x4 Bytes, Flags = 0x02000004)
T6B4C 003:891.770   CPU_ReadMem(4 bytes @ 0x40004414)
T6B4C 003:892.333   Data:  00 00 00 00
T6B4C 003:892.342 - 0.581ms returns 4 (0x4)
T6B4C 003:892.349 JLINK_ReadMemEx(0x4000441C, 0x4 Bytes, Flags = 0x02000004)
T6B4C 003:892.356   CPU_ReadMem(4 bytes @ 0x4000441C)
T6B4C 003:892.949   Data:  C0 00 00 00
T6B4C 003:892.956 - 0.609ms returns 4 (0x4)
T6B4C 003:892.962 JLINK_ReadMemEx(0x40004424, 0x8 Bytes, Flags = 0x02000004)
T6B4C 003:892.968   CPU_ReadMem(8 bytes @ 0x40004424)
T6B4C 003:893.644   Data:  00 00 00 00 00 00 00 00
T6B4C 003:893.667 - 0.708ms returns 8 (0x8)
T6B4C 003:893.678 JLINK_ReadMemEx(0x4000442C, 0x4 Bytes, Flags = 0x02000004)
T6B4C 003:893.691   CPU_ReadMem(4 bytes @ 0x4000442C)
T6B4C 003:894.344   Data:  00 00 00 00
T6B4C 003:894.357 - 0.680ms returns 4 (0x4)
T6B4C 003:896.191 JLINK_ReadMemEx(0x08007EAC, 0x3C Bytes, Flags = 0x02000000)
T6B4C 003:896.206   CPU_ReadMem(128 bytes @ 0x08007E80)
T6B4C 003:898.072    -- Updating C cache (128 bytes @ 0x08007E80)
T6B4C 003:898.085    -- Read from C cache (60 bytes @ 0x08007EAC)
T6B4C 003:898.096   Data:  00 78 18 B1 52 46 17 99 90 47 6D 1C E0 03 23 D5 ...
T6B4C 003:898.103 - 1.913ms returns 60 (0x3C)
T6B4C 003:898.110 JLINK_ReadMemEx(0x08007EAC, 0x2 Bytes, Flags = 0x02000000)
T6B4C 003:898.115    -- Read from C cache (2 bytes @ 0x08007EAC)
T6B4C 003:898.122   Data:  00 78
T6B4C 003:898.129 - 0.021ms returns 2 (0x2)
T6B4C 003:898.134 JLINK_ReadMemEx(0x08007EAE, 0x2 Bytes, Flags = 0x02000000)
T6B4C 003:898.139    -- Read from C cache (2 bytes @ 0x08007EAE)
T6B4C 003:898.146   Data:  18 B1
T6B4C 003:898.152 - 0.020ms returns 2 (0x2)
T6B4C 003:898.159 JLINK_ReadMemEx(0x08007EAE, 0x2 Bytes, Flags = 0x02000000)
T6B4C 003:898.164    -- Read from C cache (2 bytes @ 0x08007EAE)
T6B4C 003:898.170   Data:  18 B1
T6B4C 003:898.177 - 0.020ms returns 2 (0x2)
T6B4C 003:898.183 JLINK_ReadMemEx(0x08007EB0, 0x3C Bytes, Flags = 0x02000000)
T6B4C 003:898.188    -- Read from C cache (60 bytes @ 0x08007EB0)
T6B4C 003:898.195   Data:  52 46 17 99 90 47 6D 1C E0 03 23 D5 53 46 21 46 ...
T6B4C 003:898.202 - 0.022ms returns 60 (0x3C)
T6B4C 003:898.209 JLINK_ReadMemEx(0x08007EB0, 0x2 Bytes, Flags = 0x02000000)
T6B4C 003:898.214    -- Read from C cache (2 bytes @ 0x08007EB0)
